T2A6C 000:017.075   SEGGER J-Link V6.70e Log File
T2A6C 000:017.948   DLL Compiled: Apr 17 2020 17:55:05
T2A6C 000:017.955   Logging started @ 2021-08-18 01:56
T2A6C 000:017.965 JLINK_SetWarnOutHandler(...)
T2A6C 000:018.240 - 0.278ms
T2A6C 000:018.468 JLINK_OpenEx(...)
T2A6C 000:022.541   Firmware: J-Link V9 compiled Dec 13 2019 11:14:50
T2A6C 000:023.428   Decompressing FW timestamp took 630 us
T2A6C 000:029.610   Hardware: V9.70
T2A6C 000:029.630   S/N: 59700618
T2A6C 000:029.640   OEM: SEGGER
T2A6C 000:029.649   Feature(s): RDI, FlashBP, FlashDL, JFlash, GDB
T2A6C 000:030.977   TELNET listener socket opened on port 19021
T2A6C 000:031.233   WEBSRV Starting webserver
T2A6C 000:031.355   WEBSRV Webserver running on local port 19080
T2A6C 000:031.366 - 12.902ms returns "O.K."
T2A6C 000:031.385 JLINK_GetEmuCaps()
T2A6C 000:031.392 - 0.010ms returns 0xB9FF7BBF
T2A6C 000:031.401 JLINK_TIF_GetAvailable(...)
T2A6C 000:031.572 - 0.179ms
T2A6C 000:031.590 JLINK_SetErrorOutHandler(...)
T2A6C 000:031.597 - 0.009ms
T2A6C 000:031.944 JLINK_ExecCommand("ProjectFile = "C:\Users\Stone\Desktop\STM32 code\01_Stand Temp\Project\JLinkSettings.ini"", ...). 
T2A6C 000:054.313 - 22.716ms returns 0x00
T2A6C 000:059.934 JLINK_ExecCommand("Device = STM32F103ZE", ...). 
T2A6C 000:069.503   Device "STM32F103ZE" selected.
T2A6C 000:069.955 - 10.005ms returns 0x00
T2A6C 000:069.973 JLINK_ExecCommand("DisableConnectionTimeout", ...). 
T2A6C 000:069.985 - 0.006ms returns 0x01
T2A6C 000:069.996 JLINK_GetHardwareVersion()
T2A6C 000:070.007 - 0.019ms returns 0x17AE8
T2A6C 000:070.022 JLINK_GetDLLVersion()  returns 67005
T2A6C 000:070.056 JLINK_GetFirmwareString(...)
T2A6C 000:070.065 - 0.012ms
T2A6C 000:100.668 JLINK_GetDLLVersion()  returns 67005
T2A6C 000:100.694 JLINK_GetCompileDateTime()
T2A6C 000:100.701 - 0.009ms
T2A6C 000:106.561 JLINK_GetFirmwareString(...)
T2A6C 000:106.583 - 0.025ms
T2A6C 000:109.499 JLINK_GetHardwareVersion()
T2A6C 000:109.520 - 0.025ms returns 0x17AE8
T2A6C 000:121.734 JLINK_TIF_Select(JLINKARM_TIF_JTAG)
T2A6C 000:125.361 - 3.642ms returns 0x00
T2A6C 000:125.674 JLINK_SetSpeed(10000)
T2A6C 000:125.809 - 0.144ms
T2A6C 000:125.827 JLINK_GetIdData(pIdData)
T2A6C 000:130.586   TotalIRLen = 9, IRPrint = 0x0011
T2A6C 000:134.287   JTAG chain detection found 2 devices:
T2A6C 000:137.011    #0 Id: 0x3BA00477, IRLen: 04, CoreSight JTAG-DP
T2A6C 000:140.000    #1 Id: 0x06414041, IRLen: 05, STM32 Boundary Scan
T2A6C 000:148.499   TotalIRLen = 9, IRPrint = 0x0011
T2A6C 000:151.572   JTAG chain detection found 2 devices:
T2A6C 000:154.008    #0 Id: 0x3BA00477, IRLen: 04, CoreSight JTAG-DP
T2A6C 000:156.450    #1 Id: 0x06414041, IRLen: 05, STM32 Boundary Scan
T2A6C 000:157.903   Old FW that does not support reading DPIDR via DAP jobs
T2A6C 000:161.902   Unknown DP version. Assuming DPv0
T2A6C 000:165.503   Scanning AP map to find all available APs
T2A6C 000:169.412   AP[1]: Stopped AP scan as end of AP map has been reached
T2A6C 000:172.294   AP[0]: AHB-AP (IDR: 0x14770011)
T2A6C 000:174.843   Iterating through AP map to find AHB-AP to use
T2A6C 000:178.044   AP[0]: Core found
T2A6C 000:180.490   AP[0]: AHB-AP ROM base: 0xE00FF000
T2A6C 000:183.893   CPUID register: 0x411FC231. Implementer code: 0x41 (ARM)
T2A6C 000:186.293   Found Cortex-M3 r1p1, Little endian.
T2A6C 000:186.626    -- Max. mem block: 0x00010DD0
T2A6C 000:186.650   CPU_ReadMem(4 bytes @ 0xE000EDF0)
T2A6C 000:187.846   CPU_WriteMem(4 bytes @ 0xE000EDF0)
T2A6C 000:188.104   CPU_ReadMem(4 bytes @ 0xE0002000)
T2A6C 000:190.658   FPUnit: 6 code (BP) slots and 2 literal slots
T2A6C 000:190.677   CPU_ReadMem(4 bytes @ 0xE000EDFC)
T2A6C 000:190.928   CPU_WriteMem(4 bytes @ 0xE000EDFC)
T2A6C 000:191.154   CPU_ReadMem(4 bytes @ 0xE0001000)
T2A6C 000:191.461   CPU_WriteMem(4 bytes @ 0xE0001000)
T2A6C 000:191.760   CPU_ReadMem(4 bytes @ 0xE000ED88)
T2A6C 000:192.045   CPU_WriteMem(4 bytes @ 0xE000ED88)
T2A6C 000:192.300   CPU_ReadMem(4 bytes @ 0xE000ED88)
T2A6C 000:192.574   CPU_WriteMem(4 bytes @ 0xE000ED88)
T2A6C 000:195.252   CoreSight components:
T2A6C 000:197.764   ROMTbl[0] @ E00FF000
T2A6C 000:197.787   CPU_ReadMem(64 bytes @ 0xE00FF000)
T2A6C 000:198.173   CPU_ReadMem(32 bytes @ 0xE000EFE0)
T2A6C 000:201.531   ROMTbl[0][0]: E000E000, CID: B105E00D, PID: 001BB000 SCS
T2A6C 000:201.558   CPU_ReadMem(32 bytes @ 0xE0001FE0)
T2A6C 000:204.206   ROMTbl[0][1]: E0001000, CID: B105E00D, PID: 001BB002 DWT
T2A6C 000:204.227   CPU_ReadMem(32 bytes @ 0xE0002FE0)
T2A6C 000:206.846   ROMTbl[0][2]: E0002000, CID: B105E00D, PID: 000BB003 FPB
T2A6C 000:206.865   CPU_ReadMem(32 bytes @ 0xE0000FE0)
T2A6C 000:209.669   ROMTbl[0][3]: E0000000, CID: B105E00D, PID: 001BB001 ITM
T2A6C 000:209.689   CPU_ReadMem(32 bytes @ 0xE0040FE0)
T2A6C 000:212.439   ROMTbl[0][4]: E0040000, CID: B105900D, PID: 001BB923 TPIU-Lite
T2A6C 000:212.461   CPU_ReadMem(32 bytes @ 0xE0041FE0)
T2A6C 000:215.778   ROMTbl[0][5]: E0041000, CID: B105900D, PID: 101BB924 ETM-M3
T2A6C 000:216.173   pIdData->ScanLen=9
T2A6C 000:216.189   
T2A6C 000:216.195   pIdData->NumDevices=2
T2A6C 000:216.204   
T2A6C 000:216.210   pIdData->aId[0]=0x3BA00477
T2A6C 000:216.219   
T2A6C 000:216.225   pIdData->aIrRead[0]=0
T2A6C 000:216.233   
T2A6C 000:216.239   pIdData->aScanLen[0]=0
T2A6C 000:216.248   
T2A6C 000:216.254   pIdData->aScanRead[0]=0
T2A6C 000:216.262   
T2A6C 000:216.268 - 90.444ms
T2A6C 000:216.286 JLINK_JTAG_GetDeviceID(DeviceIndex = 0)
T2A6C 000:216.293 - 0.010ms returns 0x3BA00477
T2A6C 000:216.302 JLINK_JTAG_GetDeviceInfo(DeviceIndex = 0)
T2A6C 000:216.308 - 0.009ms returns 0x00
T2A6C 000:216.316 JLINK_JTAG_GetDeviceID(DeviceIndex = 1)
T2A6C 000:216.322 - 0.009ms returns 0x6414041
T2A6C 000:216.330 JLINK_JTAG_GetDeviceInfo(DeviceIndex = 1)
T2A6C 000:216.337 - 0.009ms returns 0x00
T2A6C 000:216.347 JLINK_GetDLLVersion()  returns 67005
T2A6C 000:216.355 JLINK_CORE_GetFound()
T2A6C 000:216.361 - 0.009ms returns 0x30000FF
T2A6C 000:216.370 JLINK_GetDebugInfo(0x100 = JLINKARM_ROM_TABLE_ADDR_INDEX)
T2A6C 000:216.380   Value=0xE00FF000
T2A6C 000:216.389 - 0.022ms returns 0x00
T2A6C 000:219.242 JLINK_GetDebugInfo(0x100 = JLINKARM_ROM_TABLE_ADDR_INDEX)
T2A6C 000:219.258   Value=0xE00FF000
T2A6C 000:219.267 - 0.028ms returns 0x00
T2A6C 000:219.276 JLINK_GetDebugInfo(0x101 = JLINKARM_DEBUG_INFO_ETM_ADDR_INDEX)
T2A6C 000:219.283   Value=0xE0041000
T2A6C 000:219.291 - 0.018ms returns 0x00
T2A6C 000:219.300   JLINK_ReadMemEx(0xE0041FD0, 0x0020 Bytes, ..., Flags = 0x02000004)
T2A6C 000:219.327   CPU_ReadMem(32 bytes @ 0xE0041FD0)
T2A6C 000:219.679   Data:  04 00 00 00 00 00 00 00 00 00 00 00 00 00 00 00 ...
T2A6C 000:219.708 - 0.412ms returns 0x20
T2A6C 000:219.719 JLINK_GetDebugInfo(0x102 = JLINKARM_DEBUG_INFO_MTB_ADDR_INDEX)
T2A6C 000:219.727   Value=0x00000000
T2A6C 000:219.735 - 0.019ms returns 0x00
T2A6C 000:219.743 JLINK_GetDebugInfo(0x103 = JLINKARM_DEBUG_INFO_TPIU_ADDR_INDEX)
T2A6C 000:219.750   Value=0xE0040000
T2A6C 000:219.758 - 0.018ms returns 0x00
T2A6C 000:219.766 JLINK_GetDebugInfo(0x104 = JLINKARM_DEBUG_INFO_ITM_ADDR_INDEX)
T2A6C 000:219.773   Value=0xE0000000
T2A6C 000:219.781 - 0.017ms returns 0x00
T2A6C 000:219.789 JLINK_GetDebugInfo(0x105 = JLINKARM_DEBUG_INFO_DWT_ADDR_INDEX)
T2A6C 000:219.795   Value=0xE0001000
T2A6C 000:219.804 - 0.018ms returns 0x00
T2A6C 000:219.812 JLINK_GetDebugInfo(0x106 = JLINKARM_DEBUG_INFO_FPB_ADDR_INDEX)
T2A6C 000:219.818   Value=0xE0002000
T2A6C 000:219.827 - 0.018ms returns 0x00
T2A6C 000:219.835 JLINK_GetDebugInfo(0x107 = JLINKARM_DEBUG_INFO_NVIC_ADDR_INDEX)
T2A6C 000:219.841   Value=0xE000E000
T2A6C 000:219.849 - 0.017ms returns 0x00
T2A6C 000:219.857 JLINK_GetDebugInfo(0x10C = JLINKARM_DEBUG_INFO_DBG_ADDR_INDEX)
T2A6C 000:219.863   Value=0xE000EDF0
T2A6C 000:219.872 - 0.018ms returns 0x00
T2A6C 000:219.880 JLINK_GetDebugInfo(0x01 = Unknown)
T2A6C 000:219.888   Value=0x00000000
T2A6C 000:219.897 - 0.020ms returns 0x00
T2A6C 000:219.907 JLINK_ReadMemU32(0xE000ED00, 0x0001 Items, ...)
T2A6C 000:219.918   CPU_ReadMem(4 bytes @ 0xE000ED00)
T2A6C 000:220.179   Data:  31 C2 1F 41
T2A6C 000:220.200    - CPUID
T2A6C 000:220.209 - 0.305ms returns 1
T2A6C 000:220.220 JLINK_GetDebugInfo(0x10F = JLINKARM_DEBUG_INFO_HAS_CORTEX_M_SECURITY_EXT_INDEX)
T2A6C 000:220.227   Value=0x00000000
T2A6C 000:220.236 - 0.019ms returns 0x00
T2A6C 000:220.247 JLINK_SetResetType(JLINKARM_CM3_RESET_TYPE_NORMAL)
T2A6C 000:220.253 - 0.009ms returns JLINKARM_CM3_RESET_TYPE_NORMAL
T2A6C 000:220.261 JLINK_Reset()
T2A6C 000:220.278   CPU is running
T2A6C 000:220.289   CPU_WriteMem(4 bytes @ 0xE000EDF0)
T2A6C 000:220.515   CPU is running
T2A6C 000:220.530   CPU_WriteMem(4 bytes @ 0xE000EDFC)
T2A6C 000:224.323   Reset: Halt core after reset via DEMCR.VC_CORERESET.
T2A6C 000:227.320   Reset: Reset device via AIRCR.SYSRESETREQ.
T2A6C 000:227.342   CPU is running
T2A6C 000:227.354   CPU_WriteMem(4 bytes @ 0xE000ED0C)
T2A6C 000:279.687   CPU_ReadMem(4 bytes @ 0xE000EDF0)
T2A6C 000:280.048   CPU_ReadMem(4 bytes @ 0xE000EDF0)
T2A6C 000:280.378   CPU is running
T2A6C 000:280.394   CPU_WriteMem(4 bytes @ 0xE000EDF0)
T2A6C 000:280.644   CPU is running
T2A6C 000:280.667   CPU_WriteMem(4 bytes @ 0xE000EDFC)
T2A6C 000:286.579   CPU_ReadMem(4 bytes @ 0xE000EDF0)
T2A6C 000:288.541   CPU_WriteMem(4 bytes @ 0xE000EDFC)
T2A6C 000:288.859   CPU_WriteMem(4 bytes @ 0xE0001028)
T2A6C 000:289.164   CPU_WriteMem(4 bytes @ 0xE0001038)
T2A6C 000:289.454   CPU_WriteMem(4 bytes @ 0xE0001048)
T2A6C 000:289.691   CPU_WriteMem(4 bytes @ 0xE0001058)
T2A6C 000:289.930   CPU_WriteMem(4 bytes @ 0xE0002000)
T2A6C 000:290.159   CPU_ReadMem(4 bytes @ 0xE000EDFC)
T2A6C 000:290.411   CPU_ReadMem(4 bytes @ 0xE0001000)
T2A6C 000:290.664 - 70.409ms
T2A6C 000:290.683 JLINK_Halt()
T2A6C 000:290.690 - 0.010ms returns 0x00
T2A6C 000:290.699 JLINK_ReadMemU32(0xE000EDF0, 0x0001 Items, ...)
T2A6C 000:290.712   CPU_ReadMem(4 bytes @ 0xE000EDF0)
T2A6C 000:290.976   Data:  03 00 03 00
T2A6C 000:290.990    - DHCSR
T2A6C 000:290.999 - 0.303ms returns 1
T2A6C 000:291.013 JLINK_WriteU32(0xE000EDF0, 0xA05F0003)
T2A6C 000:291.020    - DHCSR
T2A6C 000:291.039   CPU_WriteMem(4 bytes @ 0xE000EDF0)
T2A6C 000:291.236 - 0.230ms returns 0
T2A6C 000:291.252 JLINK_WriteU32(0xE000EDFC, 0x01000000)
T2A6C 000:291.260    - DEMCR
T2A6C 000:291.273   CPU_WriteMem(4 bytes @ 0xE000EDFC)
T2A6C 000:291.464 - 0.219ms returns 0
T2A6C 000:303.017 JLINK_GetHWStatus(...)
T2A6C 000:303.167 - 0.158ms returns 0x00
T2A6C 000:309.749 JLINK_GetNumBPUnits(Type = 0xFFFFFF00)
T2A6C 000:309.769 - 0.022ms returns 0x06
T2A6C 000:309.778 JLINK_GetNumBPUnits(Type = 0xF0)
T2A6C 000:309.784 - 0.009ms returns 0x2000
T2A6C 000:309.793 JLINK_GetNumWPUnits()
T2A6C 000:309.799 - 0.009ms returns 0x04
T2A6C 000:317.405 JLINK_GetSpeed()
T2A6C 000:317.429 - 0.026ms returns 0x2710
T2A6C 000:321.904 JLINK_ReadMemU32(0xE000E004, 0x0001 Items, ...)
T2A6C 000:321.937   CPU_ReadMem(4 bytes @ 0xE000E004)
T2A6C 000:322.225   Data:  01 00 00 00
T2A6C 000:322.242 - 0.341ms returns 1
T2A6C 000:322.254 JLINK_ReadMemU32(0xE000E004, 0x0001 Items, ...)
T2A6C 000:322.266   CPU_ReadMem(4 bytes @ 0xE000E004)
T2A6C 000:322.555   Data:  01 00 00 00
T2A6C 000:322.569 - 0.317ms returns 1
T2A6C 000:322.579 JLINK_WriteMemEx(0xE0001000, 0x001C Bytes, ..., Flags = 0x02000004)
T2A6C 000:322.587   Data:  01 00 00 00 00 00 00 00 00 00 00 00 00 00 00 00 ...
T2A6C 000:323.056   CPU_WriteMem(28 bytes @ 0xE0001000)
T2A6C 000:323.405 - 0.834ms returns 0x1C
T2A6C 000:323.425 JLINK_Halt()
T2A6C 000:323.432 - 0.010ms returns 0x00
T2A6C 000:323.441 JLINK_IsHalted()
T2A6C 000:323.448 - 0.010ms returns TRUE
T2A6C 000:326.800 JLINK_WriteMem(0x20000000, 0x0164 Bytes, ...)
T2A6C 000:326.814   Data:  00 BE 0A E0 0D 78 2D 06 68 40 08 24 40 00 00 D3 ...
T2A6C 000:327.283   CPU_WriteMem(356 bytes @ 0x20000000)
T2A6C 000:328.394 - 1.604ms returns 0x164
T2A6C 000:328.434 JLINK_WriteReg(R0, 0x08000000)
T2A6C 000:328.445 - 0.015ms returns 0x00
T2A6C 000:328.454 JLINK_WriteReg(R1, 0x00B71B00)
T2A6C 000:328.464 - 0.013ms returns 0x00
T2A6C 000:328.473 JLINK_WriteReg(R2, 0x00000001)
T2A6C 000:328.480 - 0.013ms returns 0x00
T2A6C 000:328.492 JLINK_WriteReg(R3, 0x00000000)
T2A6C 000:328.499 - 0.010ms returns 0x00
T2A6C 000:328.509 JLINK_WriteReg(R4, 0x00000000)
T2A6C 000:328.516 - 0.010ms returns 0x00
T2A6C 000:328.524 JLINK_WriteReg(R5, 0x00000000)
T2A6C 000:328.531 - 0.010ms returns 0x00
T2A6C 000:328.539 JLINK_WriteReg(R6, 0x00000000)
T2A6C 000:328.546 - 0.010ms returns 0x00
T2A6C 000:328.554 JLINK_WriteReg(R7, 0x00000000)
T2A6C 000:328.561 - 0.010ms returns 0x00
T2A6C 000:328.570 JLINK_WriteReg(R8, 0x00000000)
T2A6C 000:328.577 - 0.010ms returns 0x00
T2A6C 000:328.585 JLINK_WriteReg(R9, 0x20000160)
T2A6C 000:328.592 - 0.010ms returns 0x00
T2A6C 000:328.600 JLINK_WriteReg(R10, 0x00000000)
T2A6C 000:328.607 - 0.010ms returns 0x00
T2A6C 000:328.615 JLINK_WriteReg(R11, 0x00000000)
T2A6C 000:328.622 - 0.010ms returns 0x00
T2A6C 000:328.630 JLINK_WriteReg(R12, 0x00000000)
T2A6C 000:328.637 - 0.010ms returns 0x00
T2A6C 000:328.645 JLINK_WriteReg(R13 (SP), 0x20001000)
T2A6C 000:328.653 - 0.010ms returns 0x00
T2A6C 000:328.661 JLINK_WriteReg(R14, 0x20000001)
T2A6C 000:328.668 - 0.010ms returns 0x00
T2A6C 000:328.676 JLINK_WriteReg(R15 (PC), 0x20000038)
T2A6C 000:328.683 - 0.010ms returns 0x00
T2A6C 000:328.691 JLINK_WriteReg(XPSR, 0x01000000)
T2A6C 000:328.698 - 0.010ms returns 0x00
T2A6C 000:328.706 JLINK_WriteReg(MSP, 0x20001000)
T2A6C 000:328.712 - 0.010ms returns 0x00
T2A6C 000:328.720 JLINK_WriteReg(PSP, 0x20001000)
T2A6C 000:328.728 - 0.010ms returns 0x00
T2A6C 000:328.736 JLINK_WriteReg(CFBP, 0x00000000)
T2A6C 000:328.743 - 0.010ms returns 0x00
T2A6C 000:328.751   JLINK_SetBPEx(Addr = 0x20000000, Type = 0xFFFFFFF2)
T2A6C 000:328.765   CPU_ReadMem(2 bytes @ 0x20000000)
T2A6C 000:329.033 - 0.289ms returns 0x00000001
T2A6C 000:329.048 JLINK_Go()
T2A6C 000:329.060   CPU_WriteMem(2 bytes @ 0x20000000)
T2A6C 000:329.643   CPU_ReadMem(4 bytes @ 0xE0001000)
T2A6C 000:329.957   CPU_WriteMem(4 bytes @ 0xE0002008)
T2A6C 000:329.971   CPU_WriteMem(4 bytes @ 0xE000200C)
T2A6C 000:329.981   CPU_WriteMem(4 bytes @ 0xE0002010)
T2A6C 000:329.991   CPU_WriteMem(4 bytes @ 0xE0002014)
T2A6C 000:330.000   CPU_WriteMem(4 bytes @ 0xE0002018)
T2A6C 000:330.009   CPU_WriteMem(4 bytes @ 0xE000201C)
T2A6C 000:330.846   CPU_WriteMem(4 bytes @ 0xE0001004)
T2A6C 000:332.388 - 3.351ms
T2A6C 000:332.407 JLINK_IsHalted()
T2A6C 000:333.648   CPU_ReadMem(2 bytes @ 0x20000000)
T2A6C 000:333.923 - 1.523ms returns TRUE
T2A6C 000:333.939 JLINK_ReadReg(R15 (PC))
T2A6C 000:333.948 - 0.012ms returns 0x20000000
T2A6C 000:333.957 JLINK_ClrBPEx(BPHandle = 0x00000001)
T2A6C 000:333.964 - 0.010ms returns 0x00
T2A6C 000:333.972 JLINK_ReadReg(R0)
T2A6C 000:333.979 - 0.009ms returns 0x00000000
T2A6C 000:335.302 JLINK_WriteReg(R0, 0x08000000)
T2A6C 000:335.319 - 0.021ms returns 0x00
T2A6C 000:335.328 JLINK_WriteReg(R1, 0x00B71B00)
T2A6C 000:335.335 - 0.010ms returns 0x00
T2A6C 000:335.343 JLINK_WriteReg(R2, 0x00000001)
T2A6C 000:335.350 - 0.009ms returns 0x00
T2A6C 000:335.358 JLINK_WriteReg(R3, 0x00000000)
T2A6C 000:335.364 - 0.009ms returns 0x00
T2A6C 000:335.372 JLINK_WriteReg(R4, 0x00000000)
T2A6C 000:335.379 - 0.009ms returns 0x00
T2A6C 000:335.387 JLINK_WriteReg(R5, 0x00000000)
T2A6C 000:335.393 - 0.009ms returns 0x00
T2A6C 000:335.401 JLINK_WriteReg(R6, 0x00000000)
T2A6C 000:335.408 - 0.009ms returns 0x00
T2A6C 000:335.416 JLINK_WriteReg(R7, 0x00000000)
T2A6C 000:335.423 - 0.009ms returns 0x00
T2A6C 000:335.431 JLINK_WriteReg(R8, 0x00000000)
T2A6C 000:335.437 - 0.011ms returns 0x00
T2A6C 000:335.447 JLINK_WriteReg(R9, 0x20000160)
T2A6C 000:335.453 - 0.009ms returns 0x00
T2A6C 000:335.461 JLINK_WriteReg(R10, 0x00000000)
T2A6C 000:335.468 - 0.009ms returns 0x00
T2A6C 000:335.476 JLINK_WriteReg(R11, 0x00000000)
T2A6C 000:335.482 - 0.009ms returns 0x00
T2A6C 000:335.491 JLINK_WriteReg(R12, 0x00000000)
T2A6C 000:335.497 - 0.009ms returns 0x00
T2A6C 000:335.505 JLINK_WriteReg(R13 (SP), 0x20001000)
T2A6C 000:335.513 - 0.010ms returns 0x00
T2A6C 000:335.521 JLINK_WriteReg(R14, 0x20000001)
T2A6C 000:335.570 - 0.054ms returns 0x00
T2A6C 000:335.580 JLINK_WriteReg(R15 (PC), 0x2000007C)
T2A6C 000:335.588 - 0.010ms returns 0x00
T2A6C 000:335.596 JLINK_WriteReg(XPSR, 0x01000000)
T2A6C 000:335.602 - 0.009ms returns 0x00
T2A6C 000:335.610 JLINK_WriteReg(MSP, 0x20001000)
T2A6C 000:335.617 - 0.009ms returns 0x00
T2A6C 000:335.625 JLINK_WriteReg(PSP, 0x20001000)
T2A6C 000:335.631 - 0.009ms returns 0x00
T2A6C 000:335.639 JLINK_WriteReg(CFBP, 0x00000000)
T2A6C 000:335.646 - 0.009ms returns 0x00
T2A6C 000:335.655   JLINK_SetBPEx(Addr = 0x20000000, Type = 0xFFFFFFF2)
T2A6C 000:335.665 - 0.014ms returns 0x00000002
T2A6C 000:335.674 JLINK_Go()
T2A6C 000:335.688   CPU_ReadMem(4 bytes @ 0xE0001000)
T2A6C 000:337.246 - 1.582ms
T2A6C 000:337.264 JLINK_IsHalted()
T2A6C 000:337.535 - 0.278ms returns FALSE
T2A6C 000:350.450 JLINK_IsHalted()
T2A6C 000:350.739 - 0.297ms returns FALSE
T2A6C 000:352.454 JLINK_IsHalted()
T2A6C 000:352.713 - 0.266ms returns FALSE
T2A6C 000:354.438 JLINK_IsHalted()
T2A6C 000:354.681 - 0.250ms returns FALSE
T2A6C 000:356.463 JLINK_IsHalted()
T2A6C 000:356.699 - 0.245ms returns FALSE
T2A6C 000:358.424 JLINK_IsHalted()
T2A6C 000:358.686 - 0.269ms returns FALSE
T2A6C 000:360.413 JLINK_IsHalted()
T2A6C 000:361.701   CPU_ReadMem(2 bytes @ 0x20000000)
T2A6C 000:361.982 - 1.577ms returns TRUE
T2A6C 000:361.999 JLINK_ReadReg(R15 (PC))
T2A6C 000:362.009 - 0.014ms returns 0x20000000
T2A6C 000:362.018 JLINK_ClrBPEx(BPHandle = 0x00000002)
T2A6C 000:362.026 - 0.010ms returns 0x00
T2A6C 000:362.034 JLINK_ReadReg(R0)
T2A6C 000:362.041 - 0.010ms returns 0x00000000
T2A6C 000:413.936 JLINK_WriteReg(R0, 0x00000001)
T2A6C 000:413.962 - 0.030ms returns 0x00
T2A6C 000:413.972 JLINK_WriteReg(R1, 0x00B71B00)
T2A6C 000:413.979 - 0.010ms returns 0x00
T2A6C 000:413.987 JLINK_WriteReg(R2, 0x00000001)
T2A6C 000:413.994 - 0.009ms returns 0x00
T2A6C 000:414.002 JLINK_WriteReg(R3, 0x00000000)
T2A6C 000:414.009 - 0.010ms returns 0x00
T2A6C 000:414.017 JLINK_WriteReg(R4, 0x00000000)
T2A6C 000:414.023 - 0.009ms returns 0x00
T2A6C 000:414.031 JLINK_WriteReg(R5, 0x00000000)
T2A6C 000:414.038 - 0.009ms returns 0x00
T2A6C 000:414.046 JLINK_WriteReg(R6, 0x00000000)
T2A6C 000:414.053 - 0.009ms returns 0x00
T2A6C 000:414.061 JLINK_WriteReg(R7, 0x00000000)
T2A6C 000:414.068 - 0.009ms returns 0x00
T2A6C 000:414.076 JLINK_WriteReg(R8, 0x00000000)
T2A6C 000:414.082 - 0.009ms returns 0x00
T2A6C 000:414.090 JLINK_WriteReg(R9, 0x20000160)
T2A6C 000:414.097 - 0.009ms returns 0x00
T2A6C 000:414.105 JLINK_WriteReg(R10, 0x00000000)
T2A6C 000:414.111 - 0.009ms returns 0x00
T2A6C 000:414.119 JLINK_WriteReg(R11, 0x00000000)
T2A6C 000:414.126 - 0.009ms returns 0x00
T2A6C 000:414.134 JLINK_WriteReg(R12, 0x00000000)
T2A6C 000:414.141 - 0.010ms returns 0x00
T2A6C 000:414.149 JLINK_WriteReg(R13 (SP), 0x20001000)
T2A6C 000:414.156 - 0.010ms returns 0x00
T2A6C 000:414.164 JLINK_WriteReg(R14, 0x20000001)
T2A6C 000:414.171 - 0.009ms returns 0x00
T2A6C 000:414.179 JLINK_WriteReg(R15 (PC), 0x2000006A)
T2A6C 000:414.185 - 0.009ms returns 0x00
T2A6C 000:414.193 JLINK_WriteReg(XPSR, 0x01000000)
T2A6C 000:414.200 - 0.009ms returns 0x00
T2A6C 000:414.208 JLINK_WriteReg(MSP, 0x20001000)
T2A6C 000:414.215 - 0.009ms returns 0x00
T2A6C 000:414.223 JLINK_WriteReg(PSP, 0x20001000)
T2A6C 000:414.229 - 0.012ms returns 0x00
T2A6C 000:414.240 JLINK_WriteReg(CFBP, 0x00000000)
T2A6C 000:414.246 - 0.009ms returns 0x00
T2A6C 000:414.255   JLINK_SetBPEx(Addr = 0x20000000, Type = 0xFFFFFFF2)
T2A6C 000:414.266 - 0.014ms returns 0x00000003
T2A6C 000:414.274 JLINK_Go()
T2A6C 000:414.290   CPU_ReadMem(4 bytes @ 0xE0001000)
T2A6C 000:415.871 - 1.606ms
T2A6C 000:415.888 JLINK_IsHalted()
T2A6C 000:417.071   CPU_ReadMem(2 bytes @ 0x20000000)
T2A6C 000:417.330 - 1.448ms returns TRUE
T2A6C 000:417.344 JLINK_ReadReg(R15 (PC))
T2A6C 000:417.353 - 0.012ms returns 0x20000000
T2A6C 000:417.361 JLINK_ClrBPEx(BPHandle = 0x00000003)
T2A6C 000:417.369 - 0.010ms returns 0x00
T2A6C 000:417.377 JLINK_ReadReg(R0)
T2A6C 000:417.387 - 0.015ms returns 0x00000000
T2A6C 000:422.212 JLINK_WriteMem(0x20000000, 0x0164 Bytes, ...)
T2A6C 000:422.225   Data:  00 BE 0A E0 0D 78 2D 06 68 40 08 24 40 00 00 D3 ...
T2A6C 000:422.248   CPU_WriteMem(356 bytes @ 0x20000000)
T2A6C 000:423.303 - 1.100ms returns 0x164
T2A6C 000:423.341 JLINK_WriteReg(R0, 0x08000000)
T2A6C 000:423.351 - 0.014ms returns 0x00
T2A6C 000:423.360 JLINK_WriteReg(R1, 0x00B71B00)
T2A6C 000:423.367 - 0.010ms returns 0x00
T2A6C 000:423.375 JLINK_WriteReg(R2, 0x00000002)
T2A6C 000:423.382 - 0.010ms returns 0x00
T2A6C 000:423.391 JLINK_WriteReg(R3, 0x00000000)
T2A6C 000:423.398 - 0.010ms returns 0x00
T2A6C 000:423.406 JLINK_WriteReg(R4, 0x00000000)
T2A6C 000:423.412 - 0.010ms returns 0x00
T2A6C 000:423.421 JLINK_WriteReg(R5, 0x00000000)
T2A6C 000:423.428 - 0.010ms returns 0x00
T2A6C 000:423.436 JLINK_WriteReg(R6, 0x00000000)
T2A6C 000:423.443 - 0.010ms returns 0x00
T2A6C 000:423.451 JLINK_WriteReg(R7, 0x00000000)
T2A6C 000:423.458 - 0.010ms returns 0x00
T2A6C 000:423.466 JLINK_WriteReg(R8, 0x00000000)
T2A6C 000:423.473 - 0.010ms returns 0x00
T2A6C 000:423.481 JLINK_WriteReg(R9, 0x20000160)
T2A6C 000:423.487 - 0.010ms returns 0x00
T2A6C 000:423.496 JLINK_WriteReg(R10, 0x00000000)
T2A6C 000:423.502 - 0.010ms returns 0x00
T2A6C 000:423.511 JLINK_WriteReg(R11, 0x00000000)
T2A6C 000:423.517 - 0.010ms returns 0x00
T2A6C 000:423.526 JLINK_WriteReg(R12, 0x00000000)
T2A6C 000:423.532 - 0.009ms returns 0x00
T2A6C 000:423.540 JLINK_WriteReg(R13 (SP), 0x20001000)
T2A6C 000:423.548 - 0.010ms returns 0x00
T2A6C 000:423.556 JLINK_WriteReg(R14, 0x20000001)
T2A6C 000:423.563 - 0.009ms returns 0x00
T2A6C 000:423.571 JLINK_WriteReg(R15 (PC), 0x20000038)
T2A6C 000:423.578 - 0.010ms returns 0x00
T2A6C 000:423.586 JLINK_WriteReg(XPSR, 0x01000000)
T2A6C 000:423.593 - 0.010ms returns 0x00
T2A6C 000:423.601 JLINK_WriteReg(MSP, 0x20001000)
T2A6C 000:423.608 - 0.010ms returns 0x00
T2A6C 000:423.616 JLINK_WriteReg(PSP, 0x20001000)
T2A6C 000:423.623 - 0.010ms returns 0x00
T2A6C 000:423.631 JLINK_WriteReg(CFBP, 0x00000000)
T2A6C 000:423.638 - 0.009ms returns 0x00
T2A6C 000:423.647   JLINK_SetBPEx(Addr = 0x20000000, Type = 0xFFFFFFF2)
T2A6C 000:423.660   CPU_ReadMem(2 bytes @ 0x20000000)
T2A6C 000:423.960 - 0.321ms returns 0x00000004
T2A6C 000:423.975 JLINK_Go()
T2A6C 000:423.985   CPU_WriteMem(2 bytes @ 0x20000000)
T2A6C 000:424.216   CPU_ReadMem(4 bytes @ 0xE0001000)
T2A6C 000:425.785 - 1.817ms
T2A6C 000:425.800 JLINK_IsHalted()
T2A6C 000:427.069   CPU_ReadMem(2 bytes @ 0x20000000)
T2A6C 000:427.385 - 1.594ms returns TRUE
T2A6C 000:427.402 JLINK_ReadReg(R15 (PC))
T2A6C 000:427.412 - 0.013ms returns 0x20000000
T2A6C 000:427.420 JLINK_ClrBPEx(BPHandle = 0x00000004)
T2A6C 000:427.427 - 0.010ms returns 0x00
T2A6C 000:427.436 JLINK_ReadReg(R0)
T2A6C 000:427.443 - 0.010ms returns 0x00000000
T2A6C 000:427.818 JLINK_WriteMem(0x20000164, 0x029C Bytes, ...)
T2A6C 000:427.831   Data:  B8 04 00 20 45 01 00 08 DB 11 00 08 61 09 00 08 ...
T2A6C 000:427.848   CPU_WriteMem(668 bytes @ 0x20000164)
T2A6C 000:429.498 - 1.688ms returns 0x29C
T2A6C 000:429.515 JLINK_WriteMem(0x20000400, 0x0164 Bytes, ...)
T2A6C 000:429.522   Data:  00 42 02 EA 07 52 CD E9 00 42 00 1C 41 F5 80 11 ...
T2A6C 000:429.537   CPU_WriteMem(356 bytes @ 0x20000400)
T2A6C 000:430.685 - 1.179ms returns 0x164
T2A6C 000:430.706 JLINK_WriteReg(R0, 0x08000000)
T2A6C 000:430.716 - 0.013ms returns 0x00
T2A6C 000:430.725 JLINK_WriteReg(R1, 0x00000400)
T2A6C 000:430.732 - 0.010ms returns 0x00
T2A6C 000:430.740 JLINK_WriteReg(R2, 0x20000164)
T2A6C 000:430.747 - 0.009ms returns 0x00
T2A6C 000:430.755 JLINK_WriteReg(R3, 0x00000000)
T2A6C 000:430.762 - 0.009ms returns 0x00
T2A6C 000:430.770 JLINK_WriteReg(R4, 0x00000000)
T2A6C 000:430.776 - 0.010ms returns 0x00
T2A6C 000:430.785 JLINK_WriteReg(R5, 0x00000000)
T2A6C 000:430.791 - 0.009ms returns 0x00
T2A6C 000:430.799 JLINK_WriteReg(R6, 0x00000000)
T2A6C 000:430.806 - 0.009ms returns 0x00
T2A6C 000:430.814 JLINK_WriteReg(R7, 0x00000000)
T2A6C 000:430.825 - 0.015ms returns 0x00
T2A6C 000:430.834 JLINK_WriteReg(R8, 0x00000000)
T2A6C 000:430.842 - 0.010ms returns 0x00
T2A6C 000:430.850 JLINK_WriteReg(R9, 0x20000160)
T2A6C 000:430.857 - 0.009ms returns 0x00
T2A6C 000:430.865 JLINK_WriteReg(R10, 0x00000000)
T2A6C 000:430.871 - 0.010ms returns 0x00
T2A6C 000:430.880 JLINK_WriteReg(R11, 0x00000000)
T2A6C 000:430.886 - 0.010ms returns 0x00
T2A6C 000:430.894 JLINK_WriteReg(R12, 0x00000000)
T2A6C 000:430.901 - 0.010ms returns 0x00
T2A6C 000:430.909 JLINK_WriteReg(R13 (SP), 0x20001000)
T2A6C 000:430.917 - 0.010ms returns 0x00
T2A6C 000:430.925 JLINK_WriteReg(R14, 0x20000001)
T2A6C 000:430.931 - 0.010ms returns 0x00
T2A6C 000:430.940 JLINK_WriteReg(R15 (PC), 0x200000F4)
T2A6C 000:430.946 - 0.009ms returns 0x00
T2A6C 000:430.954 JLINK_WriteReg(XPSR, 0x01000000)
T2A6C 000:430.961 - 0.009ms returns 0x00
T2A6C 000:430.969 JLINK_WriteReg(MSP, 0x20001000)
T2A6C 000:430.976 - 0.010ms returns 0x00
T2A6C 000:430.984 JLINK_WriteReg(PSP, 0x20001000)
T2A6C 000:430.991 - 0.009ms returns 0x00
T2A6C 000:430.999 JLINK_WriteReg(CFBP, 0x00000000)
T2A6C 000:431.005 - 0.009ms returns 0x00
T2A6C 000:431.014   JLINK_SetBPEx(Addr = 0x20000000, Type = 0xFFFFFFF2)
T2A6C 000:431.024 - 0.014ms returns 0x00000005
T2A6C 000:431.033 JLINK_Go()
T2A6C 000:431.046   CPU_ReadMem(4 bytes @ 0xE0001000)
T2A6C 000:432.550 - 1.526ms
T2A6C 000:432.566 JLINK_IsHalted()
T2A6C 000:432.813 - 0.254ms returns FALSE
T2A6C 000:436.180 JLINK_IsHalted()
T2A6C 000:436.407 - 0.234ms returns FALSE
T2A6C 000:438.218 JLINK_IsHalted()
T2A6C 000:438.506 - 0.296ms returns FALSE
T2A6C 000:440.170 JLINK_IsHalted()
T2A6C 000:440.433 - 0.271ms returns FALSE
T2A6C 000:442.201 JLINK_IsHalted()
T2A6C 000:442.455 - 0.262ms returns FALSE
T2A6C 000:444.159 JLINK_IsHalted()
T2A6C 000:444.406 - 0.255ms returns FALSE
T2A6C 000:446.203 JLINK_IsHalted()
T2A6C 000:446.463 - 0.268ms returns FALSE
T2A6C 000:448.152 JLINK_IsHalted()
T2A6C 000:448.407 - 0.262ms returns FALSE
T2A6C 000:450.216 JLINK_IsHalted()
T2A6C 000:450.470 - 0.261ms returns FALSE
T2A6C 000:452.138 JLINK_IsHalted()
T2A6C 000:452.362 - 0.232ms returns FALSE
T2A6C 000:454.141 JLINK_IsHalted()
T2A6C 000:454.406 - 0.273ms returns FALSE
T2A6C 000:456.127 JLINK_IsHalted()
T2A6C 000:456.387 - 0.267ms returns FALSE
T2A6C 000:458.155 JLINK_IsHalted()
T2A6C 000:458.410 - 0.262ms returns FALSE
T2A6C 000:460.136 JLINK_IsHalted()
T2A6C 000:460.361 - 0.231ms returns FALSE
T2A6C 000:462.147 JLINK_IsHalted()
T2A6C 000:462.405 - 0.265ms returns FALSE
T2A6C 000:464.106 JLINK_IsHalted()
T2A6C 000:465.284   CPU_ReadMem(2 bytes @ 0x20000000)
T2A6C 000:465.543 - 1.444ms returns TRUE
T2A6C 000:465.558 JLINK_ReadReg(R15 (PC))
T2A6C 000:465.567 - 0.012ms returns 0x20000000
T2A6C 000:465.576 JLINK_ClrBPEx(BPHandle = 0x00000005)
T2A6C 000:465.584 - 0.010ms returns 0x00
T2A6C 000:465.592 JLINK_ReadReg(R0)
T2A6C 000:465.599 - 0.010ms returns 0x00000000
T2A6C 000:466.183 JLINK_WriteMem(0x20000164, 0x029C Bytes, ...)
T2A6C 000:466.195   Data:  14 53 4F EA 04 32 01 9C 43 EA 06 03 A4 F1 0C 04 ...
T2A6C 000:466.212   CPU_WriteMem(668 bytes @ 0x20000164)
T2A6C 000:467.894 - 1.718ms returns 0x29C
T2A6C 000:467.909 JLINK_WriteMem(0x20000400, 0x0164 Bytes, ...)
T2A6C 000:467.916   Data:  08 45 00 19 69 41 BD E8 F0 4D A2 E7 FE E7 70 47 ...
T2A6C 000:467.930   CPU_WriteMem(356 bytes @ 0x20000400)
T2A6C 000:469.027 - 1.124ms returns 0x164
T2A6C 000:469.045 JLINK_WriteReg(R0, 0x08000400)
T2A6C 000:469.054 - 0.012ms returns 0x00
T2A6C 000:469.062 JLINK_WriteReg(R1, 0x00000400)
T2A6C 000:469.069 - 0.010ms returns 0x00
T2A6C 000:469.077 JLINK_WriteReg(R2, 0x20000164)
T2A6C 000:469.086 - 0.011ms returns 0x00
T2A6C 000:469.094 JLINK_WriteReg(R3, 0x00000000)
T2A6C 000:469.101 - 0.009ms returns 0x00
T2A6C 000:469.109 JLINK_WriteReg(R4, 0x00000000)
T2A6C 000:469.116 - 0.010ms returns 0x00
T2A6C 000:469.124 JLINK_WriteReg(R5, 0x00000000)
T2A6C 000:469.131 - 0.009ms returns 0x00
T2A6C 000:469.139 JLINK_WriteReg(R6, 0x00000000)
T2A6C 000:469.145 - 0.013ms returns 0x00
T2A6C 000:469.159 JLINK_WriteReg(R7, 0x00000000)
T2A6C 000:469.166 - 0.010ms returns 0x00
T2A6C 000:469.175 JLINK_WriteReg(R8, 0x00000000)
T2A6C 000:469.181 - 0.010ms returns 0x00
T2A6C 000:469.190 JLINK_WriteReg(R9, 0x20000160)
T2A6C 000:469.196 - 0.010ms returns 0x00
T2A6C 000:469.205 JLINK_WriteReg(R10, 0x00000000)
T2A6C 000:469.211 - 0.010ms returns 0x00
T2A6C 000:469.219 JLINK_WriteReg(R11, 0x00000000)
T2A6C 000:469.227 - 0.010ms returns 0x00
T2A6C 000:469.235 JLINK_WriteReg(R12, 0x00000000)
T2A6C 000:469.241 - 0.010ms returns 0x00
T2A6C 000:469.250 JLINK_WriteReg(R13 (SP), 0x20001000)
T2A6C 000:469.257 - 0.011ms returns 0x00
T2A6C 000:469.265 JLINK_WriteReg(R14, 0x20000001)
T2A6C 000:469.272 - 0.010ms returns 0x00
T2A6C 000:469.280 JLINK_WriteReg(R15 (PC), 0x200000F4)
T2A6C 000:469.287 - 0.010ms returns 0x00
T2A6C 000:469.295 JLINK_WriteReg(XPSR, 0x01000000)
T2A6C 000:469.302 - 0.010ms returns 0x00
T2A6C 000:469.310 JLINK_WriteReg(MSP, 0x20001000)
T2A6C 000:469.317 - 0.010ms returns 0x00
T2A6C 000:469.325 JLINK_WriteReg(PSP, 0x20001000)
T2A6C 000:469.332 - 0.009ms returns 0x00
T2A6C 000:469.340 JLINK_WriteReg(CFBP, 0x00000000)
T2A6C 000:469.347 - 0.009ms returns 0x00
T2A6C 000:469.356   JLINK_SetBPEx(Addr = 0x20000000, Type = 0xFFFFFFF2)
T2A6C 000:469.366 - 0.014ms returns 0x00000006
T2A6C 000:469.375 JLINK_Go()
T2A6C 000:469.387   CPU_ReadMem(4 bytes @ 0xE0001000)
T2A6C 000:471.007 - 1.641ms
T2A6C 000:471.023 JLINK_IsHalted()
T2A6C 000:471.243 - 0.227ms returns FALSE
T2A6C 000:473.131 JLINK_IsHalted()
T2A6C 000:473.391 - 0.268ms returns FALSE
T2A6C 000:475.077 JLINK_IsHalted()
T2A6C 000:475.310 - 0.239ms returns FALSE
T2A6C 000:477.105 JLINK_IsHalted()
T2A6C 000:477.360 - 0.263ms returns FALSE
T2A6C 000:479.065 JLINK_IsHalted()
T2A6C 000:479.291 - 0.232ms returns FALSE
T2A6C 000:481.101 JLINK_IsHalted()
T2A6C 000:481.357 - 0.264ms returns FALSE
T2A6C 000:483.055 JLINK_IsHalted()
T2A6C 000:483.278 - 0.230ms returns FALSE
T2A6C 000:485.083 JLINK_IsHalted()
T2A6C 000:485.339 - 0.263ms returns FALSE
T2A6C 000:487.106 JLINK_IsHalted()
T2A6C 000:487.334 - 0.236ms returns FALSE
T2A6C 000:489.074 JLINK_IsHalted()
T2A6C 000:489.330 - 0.264ms returns FALSE
T2A6C 000:491.034 JLINK_IsHalted()
T2A6C 000:491.258 - 0.231ms returns FALSE
T2A6C 000:493.062 JLINK_IsHalted()
T2A6C 000:493.319 - 0.264ms returns FALSE
T2A6C 000:495.023 JLINK_IsHalted()
T2A6C 000:495.255 - 0.239ms returns FALSE
T2A6C 000:497.052 JLINK_IsHalted()
T2A6C 000:497.320 - 0.275ms returns FALSE
T2A6C 000:499.045 JLINK_IsHalted()
T2A6C 000:499.246 - 0.209ms returns FALSE
T2A6C 000:501.065 JLINK_IsHalted()
T2A6C 000:501.355 - 0.299ms returns FALSE
T2A6C 000:503.005 JLINK_IsHalted()
T2A6C 000:504.209   CPU_ReadMem(2 bytes @ 0x20000000)
T2A6C 000:504.440 - 1.442ms returns TRUE
T2A6C 000:504.456 JLINK_ReadReg(R15 (PC))
T2A6C 000:504.466 - 0.013ms returns 0x20000000
T2A6C 000:504.475 JLINK_ClrBPEx(BPHandle = 0x00000006)
T2A6C 000:504.483 - 0.010ms returns 0x00
T2A6C 000:504.491 JLINK_ReadReg(R0)
T2A6C 000:504.498 - 0.010ms returns 0x00000000
T2A6C 000:504.995 JLINK_WriteMem(0x20000164, 0x029C Bytes, ...)
T2A6C 000:505.006   Data:  11 43 19 43 21 43 29 43 41 EA 06 02 4F F0 20 41 ...
T2A6C 000:505.023   CPU_WriteMem(668 bytes @ 0x20000164)
T2A6C 000:506.667 - 1.686ms returns 0x29C
T2A6C 000:506.689 JLINK_WriteMem(0x20000400, 0x0164 Bytes, ...)
T2A6C 000:506.697   Data:  0F FA 89 F0 98 42 0A 93 00 F3 AC 80 01 98 09 EB ...
T2A6C 000:506.716   CPU_WriteMem(356 bytes @ 0x20000400)
T2A6C 000:507.828 - 1.150ms returns 0x164
T2A6C 000:507.853 JLINK_WriteReg(R0, 0x08000800)
T2A6C 000:507.864 - 0.015ms returns 0x00
T2A6C 000:507.873 JLINK_WriteReg(R1, 0x00000400)
T2A6C 000:507.880 - 0.010ms returns 0x00
T2A6C 000:507.888 JLINK_WriteReg(R2, 0x20000164)
T2A6C 000:507.895 - 0.010ms returns 0x00
T2A6C 000:507.903 JLINK_WriteReg(R3, 0x00000000)
T2A6C 000:507.911 - 0.010ms returns 0x00
T2A6C 000:507.919 JLINK_WriteReg(R4, 0x00000000)
T2A6C 000:507.926 - 0.010ms returns 0x00
T2A6C 000:507.971 JLINK_WriteReg(R5, 0x00000000)
T2A6C 000:507.982 - 0.014ms returns 0x00
T2A6C 000:507.991 JLINK_WriteReg(R6, 0x00000000)
T2A6C 000:507.998 - 0.010ms returns 0x00
T2A6C 000:508.006 JLINK_WriteReg(R7, 0x00000000)
T2A6C 000:508.013 - 0.010ms returns 0x00
T2A6C 000:508.021 JLINK_WriteReg(R8, 0x00000000)
T2A6C 000:508.027 - 0.011ms returns 0x00
T2A6C 000:508.039 JLINK_WriteReg(R9, 0x20000160)
T2A6C 000:508.046 - 0.010ms returns 0x00
T2A6C 000:508.054 JLINK_WriteReg(R10, 0x00000000)
T2A6C 000:508.061 - 0.009ms returns 0x00
T2A6C 000:508.069 JLINK_WriteReg(R11, 0x00000000)
T2A6C 000:508.075 - 0.009ms returns 0x00
T2A6C 000:508.083 JLINK_WriteReg(R12, 0x00000000)
T2A6C 000:508.090 - 0.010ms returns 0x00
T2A6C 000:508.098 JLINK_WriteReg(R13 (SP), 0x20001000)
T2A6C 000:508.106 - 0.011ms returns 0x00
T2A6C 000:508.114 JLINK_WriteReg(R14, 0x20000001)
T2A6C 000:508.120 - 0.009ms returns 0x00
T2A6C 000:508.128 JLINK_WriteReg(R15 (PC), 0x200000F4)
T2A6C 000:508.135 - 0.009ms returns 0x00
T2A6C 000:508.143 JLINK_WriteReg(XPSR, 0x01000000)
T2A6C 000:508.150 - 0.009ms returns 0x00
T2A6C 000:508.158 JLINK_WriteReg(MSP, 0x20001000)
T2A6C 000:508.164 - 0.009ms returns 0x00
T2A6C 000:508.172 JLINK_WriteReg(PSP, 0x20001000)
T2A6C 000:508.179 - 0.009ms returns 0x00
T2A6C 000:508.187 JLINK_WriteReg(CFBP, 0x00000000)
T2A6C 000:508.193 - 0.009ms returns 0x00
T2A6C 000:508.202   JLINK_SetBPEx(Addr = 0x20000000, Type = 0xFFFFFFF2)
T2A6C 000:508.213 - 0.014ms returns 0x00000007
T2A6C 000:508.221 JLINK_Go()
T2A6C 000:508.235   CPU_ReadMem(4 bytes @ 0xE0001000)
T2A6C 000:509.639 - 1.430ms
T2A6C 000:509.660 JLINK_IsHalted()
T2A6C 000:509.912 - 0.260ms returns FALSE
T2A6C 000:511.980 JLINK_IsHalted()
T2A6C 000:512.211 - 0.238ms returns FALSE
T2A6C 000:513.974 JLINK_IsHalted()
T2A6C 000:514.233 - 0.268ms returns FALSE
T2A6C 000:516.011 JLINK_IsHalted()
T2A6C 000:516.248 - 0.246ms returns FALSE
T2A6C 000:518.994 JLINK_IsHalted()
T2A6C 000:519.255 - 0.268ms returns FALSE
T2A6C 000:520.991 JLINK_IsHalted()
T2A6C 000:521.192 - 0.209ms returns FALSE
T2A6C 000:523.011 JLINK_IsHalted()
T2A6C 000:523.269 - 0.267ms returns FALSE
T2A6C 000:524.976 JLINK_IsHalted()
T2A6C 000:525.205 - 0.238ms returns FALSE
T2A6C 000:526.937 JLINK_IsHalted()
T2A6C 000:527.217 - 0.288ms returns FALSE
T2A6C 000:528.981 JLINK_IsHalted()
T2A6C 000:529.245 - 0.272ms returns FALSE
T2A6C 000:530.939 JLINK_IsHalted()
T2A6C 000:531.150 - 0.219ms returns FALSE
T2A6C 000:532.981 JLINK_IsHalted()
T2A6C 000:533.240 - 0.267ms returns FALSE
T2A6C 000:535.917 JLINK_IsHalted()
T2A6C 000:536.122 - 0.211ms returns FALSE
T2A6C 000:537.910 JLINK_IsHalted()
T2A6C 000:538.205 - 0.302ms returns FALSE
T2A6C 000:539.939 JLINK_IsHalted()
T2A6C 000:540.194 - 0.263ms returns FALSE
T2A6C 000:541.953 JLINK_IsHalted()
T2A6C 000:543.217   CPU_ReadMem(2 bytes @ 0x20000000)
T2A6C 000:543.514 - 1.569ms returns TRUE
T2A6C 000:543.530 JLINK_ReadReg(R15 (PC))
T2A6C 000:543.540 - 0.013ms returns 0x20000000
T2A6C 000:543.549 JLINK_ClrBPEx(BPHandle = 0x00000007)
T2A6C 000:543.556 - 0.010ms returns 0x00
T2A6C 000:543.565 JLINK_ReadReg(R0)
T2A6C 000:543.572 - 0.010ms returns 0x00000000
T2A6C 000:544.055 JLINK_WriteMem(0x20000164, 0x029C Bytes, ...)
T2A6C 000:544.066   Data:  0D B0 BD E8 F0 8F 00 BF 69 11 00 08 2D E9 FE 4F ...
T2A6C 000:544.081   CPU_WriteMem(668 bytes @ 0x20000164)
T2A6C 000:545.817 - 1.770ms returns 0x29C
T2A6C 000:545.833 JLINK_WriteMem(0x20000400, 0x0164 Bytes, ...)
T2A6C 000:545.841   Data:  AD F8 20 A0 B8 47 28 46 21 46 AD F8 20 80 B8 47 ...
T2A6C 000:545.856   CPU_WriteMem(356 bytes @ 0x20000400)
T2A6C 000:546.980 - 1.156ms returns 0x164
T2A6C 000:547.002 JLINK_WriteReg(R0, 0x08000C00)
T2A6C 000:547.011 - 0.013ms returns 0x00
T2A6C 000:547.020 JLINK_WriteReg(R1, 0x00000400)
T2A6C 000:547.027 - 0.010ms returns 0x00
T2A6C 000:547.035 JLINK_WriteReg(R2, 0x20000164)
T2A6C 000:547.042 - 0.010ms returns 0x00
T2A6C 000:547.050 JLINK_WriteReg(R3, 0x00000000)
T2A6C 000:547.057 - 0.010ms returns 0x00
T2A6C 000:547.068 JLINK_WriteReg(R4, 0x00000000)
T2A6C 000:547.077 - 0.012ms returns 0x00
T2A6C 000:547.086 JLINK_WriteReg(R5, 0x00000000)
T2A6C 000:547.092 - 0.010ms returns 0x00
T2A6C 000:547.101 JLINK_WriteReg(R6, 0x00000000)
T2A6C 000:547.107 - 0.010ms returns 0x00
T2A6C 000:547.116 JLINK_WriteReg(R7, 0x00000000)
T2A6C 000:547.123 - 0.010ms returns 0x00
T2A6C 000:547.131 JLINK_WriteReg(R8, 0x00000000)
T2A6C 000:547.138 - 0.010ms returns 0x00
T2A6C 000:547.146 JLINK_WriteReg(R9, 0x20000160)
T2A6C 000:547.153 - 0.009ms returns 0x00
T2A6C 000:547.161 JLINK_WriteReg(R10, 0x00000000)
T2A6C 000:547.168 - 0.010ms returns 0x00
T2A6C 000:547.176 JLINK_WriteReg(R11, 0x00000000)
T2A6C 000:547.183 - 0.009ms returns 0x00
T2A6C 000:547.191 JLINK_WriteReg(R12, 0x00000000)
T2A6C 000:547.198 - 0.010ms returns 0x00
T2A6C 000:547.206 JLINK_WriteReg(R13 (SP), 0x20001000)
T2A6C 000:547.214 - 0.010ms returns 0x00
T2A6C 000:547.222 JLINK_WriteReg(R14, 0x20000001)
T2A6C 000:547.228 - 0.010ms returns 0x00
T2A6C 000:547.236 JLINK_WriteReg(R15 (PC), 0x200000F4)
T2A6C 000:547.243 - 0.010ms returns 0x00
T2A6C 000:547.251 JLINK_WriteReg(XPSR, 0x01000000)
T2A6C 000:547.258 - 0.010ms returns 0x00
T2A6C 000:547.266 JLINK_WriteReg(MSP, 0x20001000)
T2A6C 000:547.273 - 0.009ms returns 0x00
T2A6C 000:547.281 JLINK_WriteReg(PSP, 0x20001000)
T2A6C 000:547.288 - 0.009ms returns 0x00
T2A6C 000:547.296 JLINK_WriteReg(CFBP, 0x00000000)
T2A6C 000:547.302 - 0.009ms returns 0x00
T2A6C 000:547.311   JLINK_SetBPEx(Addr = 0x20000000, Type = 0xFFFFFFF2)
T2A6C 000:547.322 - 0.014ms returns 0x00000008
T2A6C 000:547.331 JLINK_Go()
T2A6C 000:547.344   CPU_ReadMem(4 bytes @ 0xE0001000)
T2A6C 000:548.988 - 1.665ms
T2A6C 000:549.004 JLINK_IsHalted()
T2A6C 000:549.247 - 0.249ms returns FALSE
T2A6C 000:551.874 JLINK_IsHalted()
T2A6C 000:552.113 - 0.248ms returns FALSE
T2A6C 000:553.868 JLINK_IsHalted()
T2A6C 000:554.102 - 0.242ms returns FALSE
T2A6C 000:555.903 JLINK_IsHalted()
T2A6C 000:556.189 - 0.294ms returns FALSE
T2A6C 000:557.890 JLINK_IsHalted()
T2A6C 000:558.119 - 0.237ms returns FALSE
T2A6C 000:559.910 JLINK_IsHalted()
T2A6C 000:560.158 - 0.258ms returns FALSE
T2A6C 000:561.890 JLINK_IsHalted()
T2A6C 000:562.146 - 0.265ms returns FALSE
T2A6C 000:563.854 JLINK_IsHalted()
T2A6C 000:564.147 - 0.304ms returns FALSE
T2A6C 000:565.874 JLINK_IsHalted()
T2A6C 000:566.114 - 0.248ms returns FALSE
T2A6C 000:567.866 JLINK_IsHalted()
T2A6C 000:568.157 - 0.300ms returns FALSE
T2A6C 000:569.870 JLINK_IsHalted()
T2A6C 000:570.142 - 0.280ms returns FALSE
T2A6C 000:571.859 JLINK_IsHalted()
T2A6C 000:572.150 - 0.299ms returns FALSE
T2A6C 000:573.851 JLINK_IsHalted()
T2A6C 000:574.116 - 0.274ms returns FALSE
T2A6C 000:575.853 JLINK_IsHalted()
T2A6C 000:576.139 - 0.294ms returns FALSE
T2A6C 000:577.837 JLINK_IsHalted()
T2A6C 000:578.102 - 0.272ms returns FALSE
T2A6C 000:579.849 JLINK_IsHalted()
T2A6C 000:581.040   CPU_ReadMem(2 bytes @ 0x20000000)
T2A6C 000:581.343 - 1.502ms returns TRUE
T2A6C 000:581.360 JLINK_ReadReg(R15 (PC))
T2A6C 000:581.371 - 0.014ms returns 0x20000000
T2A6C 000:581.380 JLINK_ClrBPEx(BPHandle = 0x00000008)
T2A6C 000:581.387 - 0.010ms returns 0x00
T2A6C 000:581.395 JLINK_ReadReg(R0)
T2A6C 000:581.402 - 0.010ms returns 0x00000000
T2A6C 000:581.895 JLINK_WriteMem(0x20000164, 0x029C Bytes, ...)
T2A6C 000:581.905   Data:  26 25 31 80 E0 21 3C 80 35 80 A7 F8 00 A0 4F F0 ...
T2A6C 000:581.922   CPU_WriteMem(668 bytes @ 0x20000164)
T2A6C 000:583.665 - 1.783ms returns 0x29C
T2A6C 000:583.687 JLINK_WriteMem(0x20000400, 0x0164 Bytes, ...)
T2A6C 000:583.695   Data:  41 60 4F F4 1F 01 81 60 70 47 00 BF 10 B5 4A 49 ...
T2A6C 000:583.712   CPU_WriteMem(356 bytes @ 0x20000400)
T2A6C 000:584.815 - 1.135ms returns 0x164
T2A6C 000:584.833 JLINK_WriteReg(R0, 0x08001000)
T2A6C 000:584.843 - 0.013ms returns 0x00
T2A6C 000:584.852 JLINK_WriteReg(R1, 0x00000400)
T2A6C 000:584.859 - 0.010ms returns 0x00
T2A6C 000:584.867 JLINK_WriteReg(R2, 0x20000164)
T2A6C 000:584.874 - 0.010ms returns 0x00
T2A6C 000:584.887 JLINK_WriteReg(R3, 0x00000000)
T2A6C 000:584.896 - 0.012ms returns 0x00
T2A6C 000:584.904 JLINK_WriteReg(R4, 0x00000000)
T2A6C 000:584.911 - 0.010ms returns 0x00
T2A6C 000:584.919 JLINK_WriteReg(R5, 0x00000000)
T2A6C 000:584.926 - 0.010ms returns 0x00
T2A6C 000:584.934 JLINK_WriteReg(R6, 0x00000000)
T2A6C 000:584.941 - 0.010ms returns 0x00
T2A6C 000:584.949 JLINK_WriteReg(R7, 0x00000000)
T2A6C 000:584.956 - 0.010ms returns 0x00
T2A6C 000:584.964 JLINK_WriteReg(R8, 0x00000000)
T2A6C 000:584.971 - 0.010ms returns 0x00
T2A6C 000:584.979 JLINK_WriteReg(R9, 0x20000160)
T2A6C 000:584.986 - 0.010ms returns 0x00
T2A6C 000:584.994 JLINK_WriteReg(R10, 0x00000000)
T2A6C 000:585.001 - 0.010ms returns 0x00
T2A6C 000:585.009 JLINK_WriteReg(R11, 0x00000000)
T2A6C 000:585.015 - 0.009ms returns 0x00
T2A6C 000:585.023 JLINK_WriteReg(R12, 0x00000000)
T2A6C 000:585.030 - 0.010ms returns 0x00
T2A6C 000:585.038 JLINK_WriteReg(R13 (SP), 0x20001000)
T2A6C 000:585.046 - 0.010ms returns 0x00
T2A6C 000:585.054 JLINK_WriteReg(R14, 0x20000001)
T2A6C 000:585.061 - 0.009ms returns 0x00
T2A6C 000:585.069 JLINK_WriteReg(R15 (PC), 0x200000F4)
T2A6C 000:585.076 - 0.010ms returns 0x00
T2A6C 000:585.084 JLINK_WriteReg(XPSR, 0x01000000)
T2A6C 000:585.091 - 0.009ms returns 0x00
T2A6C 000:585.099 JLINK_WriteReg(MSP, 0x20001000)
T2A6C 000:585.106 - 0.009ms returns 0x00
T2A6C 000:585.114 JLINK_WriteReg(PSP, 0x20001000)
T2A6C 000:585.120 - 0.009ms returns 0x00
T2A6C 000:585.128 JLINK_WriteReg(CFBP, 0x00000000)
T2A6C 000:585.135 - 0.009ms returns 0x00
T2A6C 000:585.144   JLINK_SetBPEx(Addr = 0x20000000, Type = 0xFFFFFFF2)
T2A6C 000:585.155 - 0.014ms returns 0x00000009
T2A6C 000:585.163 JLINK_Go()
T2A6C 000:585.176   CPU_ReadMem(4 bytes @ 0xE0001000)
T2A6C 000:586.819 - 1.665ms
T2A6C 000:586.837 JLINK_IsHalted()
T2A6C 000:587.078 - 0.248ms returns FALSE
T2A6C 000:588.776 JLINK_IsHalted()
T2A6C 000:589.004 - 0.234ms returns FALSE
T2A6C 000:590.804 JLINK_IsHalted()
T2A6C 000:591.011 - 0.218ms returns FALSE
T2A6C 000:592.824 JLINK_IsHalted()
T2A6C 000:593.097 - 0.281ms returns FALSE
T2A6C 000:594.797 JLINK_IsHalted()
T2A6C 000:595.064 - 0.275ms returns FALSE
T2A6C 000:596.764 JLINK_IsHalted()
T2A6C 000:597.021 - 0.265ms returns FALSE
T2A6C 000:598.749 JLINK_IsHalted()
T2A6C 000:599.025 - 0.282ms returns FALSE
T2A6C 000:600.771 JLINK_IsHalted()
T2A6C 000:600.992 - 0.230ms returns FALSE
T2A6C 000:602.780 JLINK_IsHalted()
T2A6C 000:603.038 - 0.266ms returns FALSE
T2A6C 000:604.760 JLINK_IsHalted()
T2A6C 000:605.014 - 0.262ms returns FALSE
T2A6C 000:606.772 JLINK_IsHalted()
T2A6C 000:607.026 - 0.262ms returns FALSE
T2A6C 000:608.756 JLINK_IsHalted()
T2A6C 000:609.010 - 0.261ms returns FALSE
T2A6C 000:610.759 JLINK_IsHalted()
T2A6C 000:610.972 - 0.222ms returns FALSE
T2A6C 000:612.748 JLINK_IsHalted()
T2A6C 000:613.308 - 0.569ms returns FALSE
T2A6C 000:616.753 JLINK_IsHalted()
T2A6C 000:617.039 - 0.295ms returns FALSE
T2A6C 000:618.707 JLINK_IsHalted()
T2A6C 000:619.939   CPU_ReadMem(2 bytes @ 0x20000000)
T2A6C 000:620.241 - 1.542ms returns TRUE
T2A6C 000:620.258 JLINK_ReadReg(R15 (PC))
T2A6C 000:620.268 - 0.013ms returns 0x20000000
T2A6C 000:620.277 JLINK_ClrBPEx(BPHandle = 0x00000009)
T2A6C 000:620.285 - 0.010ms returns 0x00
T2A6C 000:620.294 JLINK_ReadReg(R0)
T2A6C 000:620.300 - 0.010ms returns 0x00000000
T2A6C 000:620.833 JLINK_WriteMem(0x20000164, 0x029C Bytes, ...)
T2A6C 000:620.846   Data:  70 47 00 F0 71 BB 00 00 82 B0 36 48 36 4A 01 68 ...
T2A6C 000:620.864   CPU_WriteMem(668 bytes @ 0x20000164)
T2A6C 000:622.576 - 1.753ms returns 0x29C
T2A6C 000:622.596 JLINK_WriteMem(0x20000400, 0x0164 Bytes, ...)
T2A6C 000:622.604   Data:  01 20 FF F7 83 FE 39 20 FF F7 3A FE 00 28 FA D0 ...
T2A6C 000:622.623   CPU_WriteMem(356 bytes @ 0x20000400)
T2A6C 000:623.825 - 1.239ms returns 0x164
T2A6C 000:623.848 JLINK_WriteReg(R0, 0x08001400)
T2A6C 000:623.859 - 0.014ms returns 0x00
T2A6C 000:623.868 JLINK_WriteReg(R1, 0x00000400)
T2A6C 000:623.875 - 0.010ms returns 0x00
T2A6C 000:623.883 JLINK_WriteReg(R2, 0x20000164)
T2A6C 000:623.894 - 0.013ms returns 0x00
T2A6C 000:623.902 JLINK_WriteReg(R3, 0x00000000)
T2A6C 000:623.909 - 0.010ms returns 0x00
T2A6C 000:623.917 JLINK_WriteReg(R4, 0x00000000)
T2A6C 000:623.924 - 0.009ms returns 0x00
T2A6C 000:623.932 JLINK_WriteReg(R5, 0x00000000)
T2A6C 000:623.938 - 0.009ms returns 0x00
T2A6C 000:623.946 JLINK_WriteReg(R6, 0x00000000)
T2A6C 000:623.953 - 0.009ms returns 0x00
T2A6C 000:623.961 JLINK_WriteReg(R7, 0x00000000)
T2A6C 000:623.968 - 0.010ms returns 0x00
T2A6C 000:623.976 JLINK_WriteReg(R8, 0x00000000)
T2A6C 000:623.983 - 0.009ms returns 0x00
T2A6C 000:623.991 JLINK_WriteReg(R9, 0x20000160)
T2A6C 000:623.997 - 0.010ms returns 0x00
T2A6C 000:624.006 JLINK_WriteReg(R10, 0x00000000)
T2A6C 000:624.012 - 0.010ms returns 0x00
T2A6C 000:624.020 JLINK_WriteReg(R11, 0x00000000)
T2A6C 000:624.027 - 0.009ms returns 0x00
T2A6C 000:624.035 JLINK_WriteReg(R12, 0x00000000)
T2A6C 000:624.042 - 0.009ms returns 0x00
T2A6C 000:624.050 JLINK_WriteReg(R13 (SP), 0x20001000)
T2A6C 000:624.057 - 0.010ms returns 0x00
T2A6C 000:624.065 JLINK_WriteReg(R14, 0x20000001)
T2A6C 000:624.072 - 0.010ms returns 0x00
T2A6C 000:624.080 JLINK_WriteReg(R15 (PC), 0x200000F4)
T2A6C 000:624.087 - 0.010ms returns 0x00
T2A6C 000:624.095 JLINK_WriteReg(XPSR, 0x01000000)
T2A6C 000:624.102 - 0.010ms returns 0x00
T2A6C 000:624.110 JLINK_WriteReg(MSP, 0x20001000)
T2A6C 000:624.117 - 0.009ms returns 0x00
T2A6C 000:624.125 JLINK_WriteReg(PSP, 0x20001000)
T2A6C 000:624.132 - 0.009ms returns 0x00
T2A6C 000:624.140 JLINK_WriteReg(CFBP, 0x00000000)
T2A6C 000:624.146 - 0.009ms returns 0x00
T2A6C 000:624.155   JLINK_SetBPEx(Addr = 0x20000000, Type = 0xFFFFFFF2)
T2A6C 000:624.166 - 0.014ms returns 0x0000000A
T2A6C 000:624.174 JLINK_Go()
T2A6C 000:624.188   CPU_ReadMem(4 bytes @ 0xE0001000)
T2A6C 000:625.812 - 1.648ms
T2A6C 000:625.831 JLINK_IsHalted()
T2A6C 000:626.085 - 0.261ms returns FALSE
T2A6C 000:628.695 JLINK_IsHalted()
T2A6C 000:628.950 - 0.263ms returns FALSE
T2A6C 000:630.694 JLINK_IsHalted()
T2A6C 000:630.957 - 0.272ms returns FALSE
T2A6C 000:632.692 JLINK_IsHalted()
T2A6C 000:632.948 - 0.263ms returns FALSE
T2A6C 000:634.685 JLINK_IsHalted()
T2A6C 000:634.923 - 0.247ms returns FALSE
T2A6C 000:636.658 JLINK_IsHalted()
T2A6C 000:636.956 - 0.306ms returns FALSE
T2A6C 000:638.650 JLINK_IsHalted()
T2A6C 000:638.925 - 0.283ms returns FALSE
T2A6C 000:640.658 JLINK_IsHalted()
T2A6C 000:640.929 - 0.281ms returns FALSE
T2A6C 000:642.685 JLINK_IsHalted()
T2A6C 000:643.518 - 0.842ms returns FALSE
T2A6C 000:644.633 JLINK_IsHalted()
T2A6C 000:644.925 - 0.299ms returns FALSE
T2A6C 000:646.629 JLINK_IsHalted()
T2A6C 000:646.881 - 0.260ms returns FALSE
T2A6C 000:648.657 JLINK_IsHalted()
T2A6C 000:648.956 - 0.307ms returns FALSE
T2A6C 000:650.620 JLINK_IsHalted()
T2A6C 000:650.885 - 0.275ms returns FALSE
T2A6C 000:652.643 JLINK_IsHalted()
T2A6C 000:653.087 - 0.453ms returns FALSE
T2A6C 000:654.635 JLINK_IsHalted()
T2A6C 000:654.956 - 0.328ms returns FALSE
T2A6C 000:656.647 JLINK_IsHalted()
T2A6C 000:657.962   CPU_ReadMem(2 bytes @ 0x20000000)
T2A6C 000:658.272 - 1.632ms returns TRUE
T2A6C 000:658.288 JLINK_ReadReg(R15 (PC))
T2A6C 000:658.297 - 0.013ms returns 0x20000000
T2A6C 000:658.306 JLINK_ClrBPEx(BPHandle = 0x0000000A)
T2A6C 000:658.313 - 0.010ms returns 0x00
T2A6C 000:658.322 JLINK_ReadReg(R0)
T2A6C 000:658.329 - 0.010ms returns 0x00000000
T2A6C 000:658.827 JLINK_WriteMem(0x20000164, 0x029C Bytes, ...)
T2A6C 000:658.838   Data:  4F F6 FF 70 26 46 B8 47 BB F8 00 10 03 24 13 23 ...
T2A6C 000:658.854   CPU_WriteMem(668 bytes @ 0x20000164)
T2A6C 000:660.566 - 1.747ms returns 0x29C
T2A6C 000:660.584 JLINK_WriteMem(0x20000400, 0x0164 Bytes, ...)
T2A6C 000:660.592   Data:  34 20 00 00 B0 B5 98 4C 0D 4D 08 21 20 22 10 23 ...
T2A6C 000:660.607   CPU_WriteMem(356 bytes @ 0x20000400)
T2A6C 000:661.926 - 1.351ms returns 0x164
T2A6C 000:661.948 JLINK_WriteReg(R0, 0x08001800)
T2A6C 000:661.959 - 0.014ms returns 0x00
T2A6C 000:661.968 JLINK_WriteReg(R1, 0x00000400)
T2A6C 000:661.978 - 0.013ms returns 0x00
T2A6C 000:661.986 JLINK_WriteReg(R2, 0x20000164)
T2A6C 000:661.993 - 0.010ms returns 0x00
T2A6C 000:662.001 JLINK_WriteReg(R3, 0x00000000)
T2A6C 000:662.008 - 0.009ms returns 0x00
T2A6C 000:662.016 JLINK_WriteReg(R4, 0x00000000)
T2A6C 000:662.023 - 0.009ms returns 0x00
T2A6C 000:662.031 JLINK_WriteReg(R5, 0x00000000)
T2A6C 000:662.037 - 0.009ms returns 0x00
T2A6C 000:662.045 JLINK_WriteReg(R6, 0x00000000)
T2A6C 000:662.052 - 0.009ms returns 0x00
T2A6C 000:662.060 JLINK_WriteReg(R7, 0x00000000)
T2A6C 000:662.067 - 0.009ms returns 0x00
T2A6C 000:662.075 JLINK_WriteReg(R8, 0x00000000)
T2A6C 000:662.082 - 0.010ms returns 0x00
T2A6C 000:662.090 JLINK_WriteReg(R9, 0x20000160)
T2A6C 000:662.096 - 0.009ms returns 0x00
T2A6C 000:662.104 JLINK_WriteReg(R10, 0x00000000)
T2A6C 000:662.111 - 0.009ms returns 0x00
T2A6C 000:662.119 JLINK_WriteReg(R11, 0x00000000)
T2A6C 000:662.126 - 0.009ms returns 0x00
T2A6C 000:662.134 JLINK_WriteReg(R12, 0x00000000)
T2A6C 000:662.141 - 0.009ms returns 0x00
T2A6C 000:662.149 JLINK_WriteReg(R13 (SP), 0x20001000)
T2A6C 000:662.156 - 0.010ms returns 0x00
T2A6C 000:662.164 JLINK_WriteReg(R14, 0x20000001)
T2A6C 000:662.171 - 0.010ms returns 0x00
T2A6C 000:662.179 JLINK_WriteReg(R15 (PC), 0x200000F4)
T2A6C 000:662.186 - 0.010ms returns 0x00
T2A6C 000:662.194 JLINK_WriteReg(XPSR, 0x01000000)
T2A6C 000:662.201 - 0.013ms returns 0x00
T2A6C 000:662.214 JLINK_WriteReg(MSP, 0x20001000)
T2A6C 000:662.221 - 0.010ms returns 0x00
T2A6C 000:662.229 JLINK_WriteReg(PSP, 0x20001000)
T2A6C 000:662.235 - 0.009ms returns 0x00
T2A6C 000:662.243 JLINK_WriteReg(CFBP, 0x00000000)
T2A6C 000:662.250 - 0.009ms returns 0x00
T2A6C 000:662.259   JLINK_SetBPEx(Addr = 0x20000000, Type = 0xFFFFFFF2)
T2A6C 000:662.269 - 0.014ms returns 0x0000000B
T2A6C 000:662.277 JLINK_Go()
